time	V(n001)	V(n002)
0.000000000000000e+000	0.000000e+000	0.000000e+000
8.664515812548608e-008	4.332258e-001	1.436140e-005
1.732903162509722e-007	8.664516e-001	5.100926e-005
2.599354743764582e-007	1.299677e+000	1.099436e-004
3.465806325019443e-007	1.732903e+000	1.911644e-004
4.332257906274304e-007	2.166129e+000	2.946716e-004
5.198709487529164e-007	2.599355e+000	4.204653e-004
6.065161068784023e-007	3.032581e+000	5.685455e-004
1.000000000000000e-006	5.000000e+000	1.388624e-003
2.401880774761348e-005	5.000000e+000	6.477375e-002
4.703761549522695e-005	5.000000e+000	1.272007e-001
7.005642324284041e-005	5.000000e+000	1.886696e-001
9.307523099045390e-005	5.000000e+000	2.491802e-001
1.160940387380674e-004	5.000000e+000	3.087327e-001
1.391128464856808e-004	5.000000e+000	3.673271e-001
1.621316542332943e-004	5.000000e+000	4.249633e-001
3.233026568559007e-004	5.000000e+000	8.050604e-001
6.456446621011134e-004	5.000000e+000	1.455840e+000
1.290328672591539e-003	5.000000e+000	2.484763e+000
1.967499401114947e-003	5.000000e+000	3.260869e+000
2.878116278543051e-003	5.000000e+000	3.939781e+000
3.821123964562993e-003	5.000000e+000	4.375947e+000
4.821123964562994e-003	5.000000e+000	4.645160e+000
5.821123964562994e-003	5.000000e+000	4.799438e+000
6.821123964562994e-003	5.000000e+000	4.891094e+000
7.250999999999999e-003	5.000000e+000	4.917286e+000
7.391247929125990e-003	5.000000e+000	4.923653e+000
7.726537275732163e-003	5.000000e+000	4.936821e+000
7.801460522056140e-003	5.000000e+000	4.939385e+000
7.876383768380117e-003	5.000000e+000	4.941855e+000
7.951307014704093e-003	5.000000e+000	4.944231e+000
8.026230261028070e-003	5.000000e+000	4.946514e+000
8.101153507352046e-003	5.000000e+000	4.948704e+000
8.176076753676024e-003	5.000000e+000	4.950800e+000
8.251000000000000e-003	5.000000e+000	4.952803e+000
8.252000000000001e-003	0.000000e+000	4.951427e+000
8.345617142857399e-003	0.000000e+000	4.703697e+000
8.439234285714798e-003	0.000000e+000	4.469025e+000
8.532851428572196e-003	0.000000e+000	4.247409e+000
8.626468571429596e-003	0.000000e+000	4.038850e+000
8.720085714286995e-003	0.000000e+000	3.843349e+000
8.813702857144393e-003	0.000000e+000	3.660904e+000
8.907320000001792e-003	0.000000e+000	3.491516e+000
9.562680000003584e-003	0.000000e+000	2.473993e+000
1.034580737154956e-002	0.000000e+000	1.599768e+000
1.106309279965647e-002	0.000000e+000	1.061685e+000
1.174898682637240e-002	0.000000e+000	7.199664e-001
1.242210877218765e-002	0.000000e+000	4.931267e-001
1.311334907712656e-002	0.000000e+000	3.346046e-001
1.380108771393327e-002	0.000000e+000	2.272666e-001
1.449407750779950e-002	0.000000e+000	1.539029e-001
1.518059038027995e-002	0.000000e+000	1.045809e-001
1.531569374762222e-002	0.000000e+000	9.613331e-002
1.545079711496450e-002	0.000000e+000	8.834826e-002
1.558590048230677e-002	0.000000e+000	8.122577e-002
1.572100384964904e-002	0.000000e+000	7.476584e-002
1.585610721699132e-002	0.000000e+000	6.896848e-002
1.599121058433359e-002	0.000000e+000	6.383368e-002
1.612631395167586e-002	0.000000e+000	5.936145e-002
1.630588371005720e-002	0.000000e+000	5.367530e-002
1.650000000000000e-002	0.000000e+000	4.817510e-002
1.650014285714286e-002	7.142857e-001	4.821512e-002
1.650028571428571e-002	1.428571e+000	4.830687e-002
1.650042857142857e-002	2.142857e+000	4.845036e-002
1.650057142857143e-002	2.857143e+000	4.864558e-002
1.650071428571429e-002	3.571429e+000	4.889254e-002
1.650085714285714e-002	4.285714e+000	4.919123e-002
1.650100000000000e-002	5.000000e+000	4.954166e-002
1.653096951081122e-002	5.000000e+000	1.310499e-001
1.656093902162245e-002	5.000000e+000	2.109798e-001
1.659090853243367e-002	5.000000e+000	2.893315e-001
1.662087804324489e-002	5.000000e+000	3.661049e-001
1.665084755405611e-002	5.000000e+000	4.413000e-001
1.668081706486734e-002	5.000000e+000	5.149169e-001
1.671078657567856e-002	5.000000e+000	5.869554e-001
1.692059876319641e-002	5.000000e+000	1.054173e+000
1.734022313823213e-002	5.000000e+000	1.833077e+000
1.801962551721795e-002	5.000000e+000	2.798399e+000
1.876624463200319e-002	5.000000e+000	3.535247e+000
1.970200548691882e-002	5.000000e+000	4.121363e+000
2.070200548691882e-002	5.000000e+000	4.500031e+000
2.170200548691882e-002	5.000000e+000	4.717409e+000
2.270200548691882e-002	5.000000e+000	4.840275e+000
2.370200548691882e-002	5.000000e+000	4.916256e+000
2.375100000000000e-002	5.000000e+000	4.918894e+000
2.404496707848707e-002	5.000000e+000	4.930830e+000
2.414582892441749e-002	5.000000e+000	4.934677e+000
2.424669077034791e-002	5.000000e+000	4.938321e+000
2.434755261627833e-002	5.000000e+000	4.941764e+000
2.444841446220875e-002	5.000000e+000	4.945004e+000
2.454927630813917e-002	5.000000e+000	4.948041e+000
2.465013815406959e-002	5.000000e+000	4.950877e+000
2.475100000000000e-002	5.000000e+000	4.953510e+000
2.475200000000000e-002	0.000000e+000	4.952137e+000
2.484583472327437e-002	0.000000e+000	4.703821e+000
2.493966944654873e-002	0.000000e+000	4.468618e+000
2.503350416982309e-002	0.000000e+000	4.246528e+000
2.512733889309745e-002	0.000000e+000	4.037549e+000
2.522117361637181e-002	0.000000e+000	3.841684e+000
2.531500833964618e-002	0.000000e+000	3.658930e+000
2.540884306292054e-002	0.000000e+000	3.489290e+000
2.606572621880713e-002	0.000000e+000	2.470261e+000
2.684795070905751e-002	0.000000e+000	1.598009e+000
2.756563316582826e-002	0.000000e+000	1.060323e+000
2.825098402297080e-002	0.000000e+000	7.192563e-001
2.892456153780660e-002	0.000000e+000	4.925258e-001
2.961546138024782e-002	0.000000e+000	3.342545e-001
3.030350168268164e-002	0.000000e+000	2.269932e-001
3.099622818511799e-002	0.000000e+000	1.537386e-001
3.168295479489840e-002	0.000000e+000	1.044579e-001
3.181803214143501e-002	0.000000e+000	9.602182e-002
3.195310948797162e-002	0.000000e+000	8.824723e-002
3.208818683450822e-002	0.000000e+000	8.113410e-002
3.222326418104483e-002	0.000000e+000	7.468244e-002
3.235834152758144e-002	0.000000e+000	6.889225e-002
3.249341887411805e-002	0.000000e+000	6.376351e-002
3.262849622065465e-002	0.000000e+000	5.929624e-002
3.281897732392997e-002	0.000000e+000	5.329612e-002
3.300000000000000e-002	0.000000e+000	4.818160e-002
3.300014285714286e-002	7.142857e-001	4.821337e-002
3.300028571428572e-002	1.428571e+000	4.829947e-002
3.300042857142858e-002	2.142857e+000	4.843988e-002
3.300057142857143e-002	2.857143e+000	4.863462e-002
3.300071428571429e-002	3.571429e+000	4.888369e-002
3.300085714285714e-002	4.285714e+000	4.918708e-002
3.300100000000000e-002	5.000000e+000	4.954480e-002
3.303101810633206e-002	5.000000e+000	1.311836e-001
3.306103621266412e-002	5.000000e+000	2.112391e-001
3.309105431899618e-002	5.000000e+000	2.897115e-001
3.312107242532823e-002	5.000000e+000	3.666007e-001
3.315109053166029e-002	5.000000e+000	4.419067e-001
3.318110863799235e-002	5.000000e+000	5.156296e-001
3.321112674432441e-002	5.000000e+000	5.877692e-001
3.342127914201767e-002	5.000000e+000	1.055589e+000
3.384158393740420e-002	5.000000e+000	1.835372e+000
3.452099461743468e-002	5.000000e+000	2.800038e+000
3.526813470899230e-002	5.000000e+000	3.536747e+000
3.620390023796477e-002	5.000000e+000	4.122305e+000
3.720390023796477e-002	5.000000e+000	4.500566e+000
3.820390023796477e-002	5.000000e+000	4.717711e+000
3.920390023796477e-002	5.000000e+000	4.840446e+000
4.020390023796477e-002	5.000000e+000	4.916362e+000
4.034519952407046e-002	5.000000e+000	4.922957e+000
4.053359857221137e-002	5.000000e+000	4.930350e+000
4.063608449046689e-002	5.000000e+000	4.934287e+000
4.073857040872241e-002	5.000000e+000	4.938014e+000
4.084105632697793e-002	5.000000e+000	4.941534e+000
4.094354224523344e-002	5.000000e+000	4.944844e+000
4.104602816348896e-002	5.000000e+000	4.947946e+000
4.114851408174448e-002	5.000000e+000	4.950840e+000
4.125100000000000e-002	5.000000e+000	4.953525e+000
4.125200000000000e-002	0.000000e+000	4.952148e+000
4.134561714285659e-002	0.000000e+000	4.704382e+000
4.143923428571318e-002	0.000000e+000	4.469676e+000
4.153285142856977e-002	0.000000e+000	4.248028e+000
4.162646857142635e-002	0.000000e+000	4.039439e+000
4.172008571428294e-002	0.000000e+000	3.843909e+000
4.181370285713953e-002	0.000000e+000	3.661437e+000
4.190731999999611e-002	0.000000e+000	3.492025e+000
4.256267999999222e-002	0.000000e+000	2.474353e+000
4.334580737154151e-002	0.000000e+000	1.600001e+000
4.406309279964696e-002	0.000000e+000	1.061840e+000
4.474898682636491e-002	0.000000e+000	7.200712e-001
4.542210877217848e-002	0.000000e+000	4.931985e-001
4.611334907711864e-002	0.000000e+000	3.346533e-001
4.680108771392424e-002	0.000000e+000	2.272997e-001
4.749407750779144e-002	0.000000e+000	1.539253e-001
4.818059038027110e-002	0.000000e+000	1.045962e-001
4.831569374761347e-002	0.000000e+000	9.614731e-002
4.845079711495584e-002	0.000000e+000	8.836112e-002
4.858590048229821e-002	0.000000e+000	8.123760e-002
4.872100384964058e-002	0.000000e+000	7.477673e-002
4.885610721698295e-002	0.000000e+000	6.897853e-002
4.899121058432532e-002	0.000000e+000	6.384298e-002
4.912631395166769e-002	0.000000e+000	5.937009e-002
4.930588371000816e-002	0.000000e+000	5.368312e-002
4.950000000000000e-002	0.000000e+000	4.818211e-002
4.950014285714286e-002	7.142857e-001	4.822213e-002
4.950028571428572e-002	1.428571e+000	4.831389e-002
4.950042857142858e-002	2.142857e+000	4.845737e-002
4.950057142857143e-002	2.857143e+000	4.865260e-002
4.950071428571429e-002	3.571429e+000	4.889955e-002
4.950085714285715e-002	4.285714e+000	4.919825e-002
4.950100000000000e-002	5.000000e+000	4.954867e-002
4.953096967149932e-002	5.000000e+000	1.310572e-001
4.956093934299864e-002	5.000000e+000	2.109875e-001
4.959090901449796e-002	5.000000e+000	2.893394e-001
4.962087868599728e-002	5.000000e+000	3.661131e-001
4.965084835749660e-002	5.000000e+000	4.413085e-001
4.968081802899592e-002	5.000000e+000	5.149256e-001
4.971078770049524e-002	5.000000e+000	5.869644e-001
4.992060101296709e-002	5.000000e+000	1.054183e+000
5.034022763791079e-002	5.000000e+000	1.833089e+000
5.101963131000161e-002	5.000000e+000	2.798409e+000
5.176625250786756e-002	5.000000e+000	3.535255e+000
5.270201468234592e-002	5.000000e+000	4.121369e+000
5.370201468234592e-002	5.000000e+000	4.500034e+000
5.470201468234592e-002	5.000000e+000	4.717411e+000
5.570201468234592e-002	5.000000e+000	4.840276e+000
5.670201468234593e-002	5.000000e+000	4.916257e+000
5.675100000000000e-002	5.000000e+000	4.918894e+000
5.704491190592447e-002	5.000000e+000	4.930828e+000
5.714578163364955e-002	5.000000e+000	4.934675e+000
5.724665136137462e-002	5.000000e+000	4.938320e+000
5.734752108909970e-002	5.000000e+000	4.941763e+000
5.744839081682478e-002	5.000000e+000	4.945003e+000
5.754926054454986e-002	5.000000e+000	4.948041e+000
5.765013027227493e-002	5.000000e+000	4.950877e+000
5.775100000000000e-002	5.000000e+000	4.953510e+000
5.775200000000001e-002	0.000000e+000	4.952134e+000
5.784561714285659e-002	0.000000e+000	4.704369e+000
5.793923428571318e-002	0.000000e+000	4.469663e+000
5.803285142856977e-002	0.000000e+000	4.248015e+000
5.812646857142635e-002	0.000000e+000	4.039427e+000
5.822008571428294e-002	0.000000e+000	3.843897e+000
5.831370285713953e-002	0.000000e+000	3.661427e+000
5.840731999999611e-002	0.000000e+000	3.492015e+000
5.906267999999222e-002	0.000000e+000	2.474346e+000
5.984580737154152e-002	0.000000e+000	1.599997e+000
6.056309279964697e-002	0.000000e+000	1.061837e+000
6.124898682636492e-002	0.000000e+000	7.200691e-001
6.192210877217848e-002	0.000000e+000	4.931971e-001
6.261334907711866e-002	0.000000e+000	3.346524e-001
6.330108771392425e-002	0.000000e+000	2.272990e-001
6.399407750779144e-002	0.000000e+000	1.539248e-001
6.468059038027110e-002	0.000000e+000	1.045959e-001
6.481569374761348e-002	0.000000e+000	9.614703e-002
6.495079711495584e-002	0.000000e+000	8.836087e-002
6.508590048229822e-002	0.000000e+000	8.123737e-002
6.522100384964058e-002	0.000000e+000	7.477652e-002
6.535610721698296e-002	0.000000e+000	6.897833e-002
6.549121058432532e-002	0.000000e+000	6.384280e-002
6.562631395166770e-002	0.000000e+000	5.936992e-002
6.580588371000820e-002	0.000000e+000	5.368296e-002
6.600000000000000e-002	0.000000e+000	4.818197e-002
6.600014285714285e-002	7.142857e-001	4.822199e-002
6.600028571428572e-002	1.428571e+000	4.831375e-002
6.600042857142857e-002	2.142857e+000	4.845723e-002
6.600057142857144e-002	2.857143e+000	4.865246e-002
6.600071428571429e-002	3.571429e+000	4.889941e-002
6.600085714285715e-002	4.285714e+000	4.919810e-002
6.600100000000000e-002	5.000000e+000	4.954853e-002
6.603096967136292e-002	5.000000e+000	1.310571e-001
6.606093934272582e-002	5.000000e+000	2.109873e-001
6.609090901408873e-002	5.000000e+000	2.893393e-001
6.612087868545165e-002	5.000000e+000	3.661130e-001
6.615084835681456e-002	5.000000e+000	4.413084e-001
6.618081802817746e-002	5.000000e+000	5.149254e-001
6.621078769954038e-002	5.000000e+000	5.869642e-001
6.642060101105726e-002	5.000000e+000	1.054183e+000
6.684022763409103e-002	5.000000e+000	1.833089e+000
6.751963128102211e-002	5.000000e+000	2.798409e+000
6.826625247027204e-002	5.000000e+000	3.535255e+000
6.920201461882879e-002	5.000000e+000	4.121369e+000
7.020201461882879e-002	5.000000e+000	4.500034e+000
7.120201461882879e-002	5.000000e+000	4.717411e+000
7.220201461882879e-002	5.000000e+000	4.840276e+000
7.320201461882879e-002	5.000000e+000	4.916257e+000
7.325100000000000e-002	5.000000e+000	4.918894e+000
7.354491228702724e-002	5.000000e+000	4.930828e+000
7.364578196030906e-002	5.000000e+000	4.934675e+000
7.374665163359088e-002	5.000000e+000	4.938320e+000
7.384752130687271e-002	5.000000e+000	4.941763e+000
7.394839098015453e-002	5.000000e+000	4.945003e+000
7.404926065343635e-002	5.000000e+000	4.948041e+000
7.415013032671818e-002	5.000000e+000	4.950877e+000
7.425100000000000e-002	5.000000e+000	4.953510e+000
7.425200000000000e-002	2.102052e-011	4.952140e+000
7.436700548112599e-002	7.306372e-012	4.651288e+000
7.448201096225199e-002	-2.837370e-012	4.368631e+000
7.459701644337798e-002	-9.410706e-012	4.104171e+000
7.471202192450396e-002	-1.241364e-011	3.857907e+000
7.482702740562995e-002	-1.184616e-011	3.629838e+000
7.494203288675595e-002	-7.708284e-012	3.419966e+000
7.505703836788194e-002	0.000000e+000	3.228290e+000
7.576377220855625e-002	0.000000e+000	2.215077e+000
7.652106641428197e-002	0.000000e+000	1.447598e+000
7.723798846838285e-002	0.000000e+000	9.621627e-001
7.791268310660354e-002	0.000000e+000	6.568958e-001
7.859645001722435e-002	0.000000e+000	4.474862e-001
7.928182245232268e-002	0.000000e+000	3.044922e-001
7.997532164415827e-002	0.000000e+000	2.061837e-001
8.066296558955879e-002	0.000000e+000	1.400139e-001
8.135362098685409e-002	0.000000e+000	9.391846e-002
8.145564373268320e-002	0.000000e+000	8.807449e-002
8.155766647851231e-002	0.000000e+000	8.263601e-002
8.165968922434143e-002	0.000000e+000	7.760303e-002
8.176171197017054e-002	0.000000e+000	7.297554e-002
8.186373471599966e-002	0.000000e+000	6.875355e-002
8.196575746182877e-002	0.000000e+000	6.493706e-002
8.206778020765788e-002	0.000000e+000	6.152606e-002
8.212952589227819e-002	0.000000e+000	5.942154e-002
8.219127157689848e-002	0.000000e+000	5.738897e-002
8.225301726151879e-002	0.000000e+000	5.542832e-002
8.231476294613910e-002	0.000000e+000	5.353961e-002
8.237650863075940e-002	0.000000e+000	5.172283e-002
8.243825431537970e-002	0.000000e+000	4.997798e-002
8.250000000000000e-002	0.000000e+000	4.830507e-002
8.250060000000001e-002	3.000000e+000	4.888610e-002
8.250100000000001e-002	5.000000e+000	4.968074e-002
8.254780571428544e-002	5.000000e+000	1.761050e-001
8.259461142857087e-002	5.000000e+000	2.988498e-001
8.264141714285631e-002	5.000000e+000	4.179151e-001
8.268822285714175e-002	5.000000e+000	5.333009e-001
8.273502857142719e-002	5.000000e+000	6.450073e-001
8.278183428571262e-002	5.000000e+000	7.530343e-001
8.282863999999805e-002	5.000000e+000	8.573818e-001
8.315631999999611e-002	5.000000e+000	1.509265e+000
8.381167999999221e-002	5.000000e+000	2.536641e+000
8.449550264787663e-002	5.000000e+000	3.303264e+000
8.541647170335126e-002	5.000000e+000	3.971443e+000
8.636767761829475e-002	5.000000e+000	4.397909e+000
8.736767761829475e-002	5.000000e+000	4.657937e+000
8.836767761829475e-002	5.000000e+000	4.806660e+000
8.936767761829476e-002	5.000000e+000	4.895421e+000
8.975100000000001e-002	5.000000e+000	4.917972e+000
8.998435523658949e-002	5.000000e+000	4.928096e+000
9.009387591707670e-002	5.000000e+000	4.932430e+000
9.020339659756392e-002	5.000000e+000	4.936520e+000
9.031291727805113e-002	5.000000e+000	4.940365e+000
9.042243795853835e-002	5.000000e+000	4.943966e+000
9.053195863902556e-002	5.000000e+000	4.947323e+000
9.064147931951279e-002	5.000000e+000	4.950435e+000
9.075100000000000e-002	5.000000e+000	4.953303e+000
9.075200000000000e-002	2.102052e-011	4.951927e+000
9.084561714285659e-002	7.306372e-012	4.704172e+000
9.093923428571317e-002	-2.837370e-012	4.469476e+000
9.103285142856976e-002	-9.410706e-012	4.247838e+000
9.112646857142635e-002	-1.241364e-011	4.039259e+000
9.122008571428295e-002	-1.184616e-011	3.843737e+000
9.131370285713952e-002	-7.708284e-012	3.661274e+000
9.140731999999611e-002	0.000000e+000	3.491869e+000
9.206267999999222e-002	0.000000e+000	2.474243e+000
9.284580737154147e-002	0.000000e+000	1.599930e+000
9.356309279964693e-002	0.000000e+000	1.061792e+000
9.424898682636487e-002	0.000000e+000	7.200391e-001
9.492210877217845e-002	0.000000e+000	4.931765e-001
9.561334907711862e-002	0.000000e+000	3.346384e-001
9.630108771392421e-002	0.000000e+000	2.272895e-001
9.699407750779140e-002	0.000000e+000	1.539184e-001
9.768059038027108e-002	0.000000e+000	1.045915e-001
9.781569374761344e-002	0.000000e+000	9.614302e-002
9.795079711495582e-002	0.000000e+000	8.835718e-002
9.808590048229818e-002	0.000000e+000	8.123397e-002
9.822100384964055e-002	0.000000e+000	7.477339e-002
9.835610721698292e-002	0.000000e+000	6.897545e-002
9.849121058432529e-002	0.000000e+000	6.384013e-002
9.862631395166766e-002	0.000000e+000	5.936744e-002
9.880588371000795e-002	0.000000e+000	5.368072e-002
9.900000000000001e-002	0.000000e+000	4.817996e-002
9.900014285714286e-002	7.142857e-001	4.821998e-002
9.900028571428572e-002	1.428571e+000	4.831173e-002
9.900042857142857e-002	2.142857e+000	4.845522e-002
9.900057142857144e-002	2.857143e+000	4.865044e-002
9.900071428571429e-002	3.571429e+000	4.889740e-002
9.900085714285715e-002	4.285714e+000	4.919609e-002
9.900100000000001e-002	5.000000e+000	4.954652e-002
9.903096967218136e-002	5.000000e+000	1.310551e-001
9.906093934436272e-002	5.000000e+000	2.109854e-001
9.909090901654408e-002	5.000000e+000	2.893374e-001
9.912087868872543e-002	5.000000e+000	3.661111e-001
9.915084836090679e-002	5.000000e+000	4.413065e-001
9.918081803308815e-002	5.000000e+000	5.149236e-001
9.921078770526950e-002	5.000000e+000	5.869625e-001
9.942060102251621e-002	5.000000e+000	1.054181e+000
9.984022765700960e-002	5.000000e+000	1.880673e+000
1.000000000000000e-001	5.000000e+000	2.161700e+000
